Circuit: * C:\Users\eduar\Documents\LTspiceXVII\Trabalho1_Simu_2B.asc

Early termination of direct N-R iteration.
Direct Newton iteration failed to find .op point.  (Use ".option noopiter" to skip.)
Starting Gmin stepping
Gmin = 10
vernier = 0.5
vernier = 0.25
vernier = 0.125
Gmin = 5.5165
vernier = 0.0625
vernier = 0.03125
vernier = 0.015625
vernier = 0.0078125
Gmin = 5.49501
vernier = 0.00390625
vernier = 0.00195313
vernier = 0.000976563
vernier = 0.000488281
Gmin = 5.50104
Gmin = 0
Gmin stepping failed

Starting source stepping with srcstepmethod=0
Source Step = 3.0303%
Source Step = 33.3333%
Source Step = 63.6364%
Source Step = 93.9394%
Source stepping succeeded in finding the operating point.

Semiconductor Device Operating Points:
                        --- Diodes ---
Name:    d:a1:p      d:a1:ln     d:a1:lp     d:a1:e      d:a1:c
Model:    a1:dx       a1:dx       a1:dx       a1:dx       a1:dx
Id:     -3.00e-11   -2.52e-11   -2.48e-11   -2.44e-11   -3.99e-13
Vd:     -3.00e+01   -2.52e+01   -2.48e+01   -2.44e+01   -3.98e-01
Req:     1.00e+12    1.00e+12    1.00e+12    1.00e+12    1.00e+12
CAP:     0.00e+00    0.00e+00    0.00e+00    0.00e+00    0.00e+00

Name:    d:a3:p      d:a3:ln     d:a3:lp     d:a3:e      d:a3:c
Model:    a3:dx       a3:dx       a3:dx       a3:dx       a3:dx
Id:     -3.00e-11   -2.48e-11   -2.52e-11   -1.24e-11   -1.24e-11
Vd:     -3.00e+01   -2.48e+01   -2.52e+01   -1.24e+01   -1.24e+01
Req:     1.00e+12    1.00e+12    1.00e+12    1.00e+12    1.00e+12
CAP:     0.00e+00    0.00e+00    0.00e+00    0.00e+00    0.00e+00

Name:    d:a2:p      d:a2:ln     d:a2:lp     d:a2:e      d:a2:c
Model:    a2:dx       a2:dx       a2:dx       a2:dx       a2:dx
Id:     -3.00e-11   -2.52e-11   -2.49e-11   -2.44e-11   -3.99e-13
Vd:     -3.00e+01   -2.51e+01   -2.49e+01   -2.44e+01   -3.98e-01
Req:     1.00e+12    1.00e+12    1.00e+12    1.00e+12    1.00e+12
CAP:     0.00e+00    0.00e+00    0.00e+00    0.00e+00    0.00e+00

                        --- Bipolar Transistors ---
Name:     q:a1:2      q:a1:1      q:a3:2      q:a3:1      q:a2:2
Model:     a1:qx       a1:qx       a3:qx       a3:qx       a2:qx
Ib:       8.48e-08    8.43e-08    8.23e-08    8.21e-08    8.48e-08
Ic:       5.30e-06    5.27e-06    5.14e-06    5.13e-06    5.30e-06
Vbe:      5.85e-01    5.85e-01    5.84e-01    5.84e-01    5.85e-01
Vbc:     -2.96e+00   -2.96e+00   -8.95e+00   -8.95e+00   -2.96e+00
Vce:      3.54e+00    3.54e+00    9.53e+00    9.53e+00    3.54e+00
BetaDC:   6.25e+01    6.25e+01    6.25e+01    6.25e+01    6.25e+01
Gm:       2.05e-04    2.04e-04    1.99e-04    1.98e-04    2.05e-04
Rpi:      3.05e+05    3.07e+05    3.14e+05    3.15e+05    3.05e+05
Rx:       0.00e+00    0.00e+00    0.00e+00    0.00e+00    0.00e+00
Ro:       1.49e+63    1.52e+63    0.00e+00    0.00e+00    1.49e+63
Cbe:      0.00e+00    0.00e+00    0.00e+00    0.00e+00    0.00e+00
Cbc:      0.00e+00    0.00e+00    0.00e+00    0.00e+00    0.00e+00
Cjs:      0.00e+00    0.00e+00    0.00e+00    0.00e+00    0.00e+00
BetaAC:   6.25e+01    6.25e+01    6.25e+01    6.25e+01    6.25e+01
Cbx:      0.00e+00    0.00e+00    0.00e+00    0.00e+00    0.00e+00
Ft:       0.00e+00    0.00e+00    0.00e+00    0.00e+00    0.00e+00

Name:     q:a2:1
Model:     a2:qx
Ib:       8.43e-08
Ic:       5.27e-06
Vbe:      5.85e-01
Vbc:     -2.96e+00
Vce:      3.54e+00
BetaDC:   6.25e+01
Gm:       2.04e-04
Rpi:      3.07e+05
Rx:       0.00e+00
Ro:       1.52e+63
Cbe:      0.00e+00
Cbc:      0.00e+00
Cjs:      0.00e+00
BetaAC:   6.25e+01
Cbx:      0.00e+00
Ft:       0.00e+00



Date: Sun Mar 07 00:25:48 2021
Total elapsed time: 3.447 seconds.

tnom = 27
temp = 27
method = trap
totiter = 1517
traniter = 0
tranpoints = 0
accept = 0
rejected = 0
matrix size = 84
fillins = 485
solver = Normal

