Circuit: * C:\Users\eduar\Documents\LTspiceXVII\Trabalho1_Simu_2B005.asc

Early termination of direct N-R iteration.
Direct Newton iteration failed to find .op point.  (Use ".option noopiter" to skip.)
Starting Gmin stepping
Gmin = 10
vernier = 0.5
vernier = 0.25
vernier = 0.125
Gmin = 5.5165
vernier = 0.0625
vernier = 0.03125
vernier = 0.015625
vernier = 0.0078125
Gmin = 5.49501
vernier = 0.00390625
vernier = 0.00195313
vernier = 0.000976563
vernier = 0.000488281
Gmin = 5.50104
Gmin = 0
Gmin stepping succeeded in finding the operating point.

Semiconductor Device Operating Points:
                        --- Diodes ---
Name:    d:a1:p      d:a1:ln     d:a1:lp     d:a1:e      d:a1:c
Model:    a1:dx       a1:dx       a1:dx       a1:dx       a1:dx
Id:     -3.00e-11   -2.51e-11   -2.49e-11   -2.24e-11   -2.40e-12
Vd:     -3.00e+01   -2.51e+01   -2.49e+01   -2.24e+01   -2.40e+00
Req:     1.00e+12    1.00e+12    1.00e+12    1.00e+12    1.00e+12
CAP:     0.00e+00    0.00e+00    0.00e+00    0.00e+00    0.00e+00

Name:    d:a3:p      d:a3:ln     d:a3:lp     d:a3:e      d:a3:c
Model:    a3:dx       a3:dx       a3:dx       a3:dx       a3:dx
Id:     -3.00e-11   -2.49e-11   -2.51e-11   -1.24e-11   -1.24e-11
Vd:     -3.00e+01   -2.49e+01   -2.51e+01   -1.24e+01   -1.24e+01
Req:     1.00e+12    1.00e+12    1.00e+12    1.00e+12    1.00e+12
CAP:     0.00e+00    0.00e+00    0.00e+00    0.00e+00    0.00e+00

Name:    d:a2:p      d:a2:ln     d:a2:lp     d:a2:e      d:a2:c
Model:    a2:dx       a2:dx       a2:dx       a2:dx       a2:dx
Id:     -3.00e-11   -2.51e-11   -2.49e-11   -2.24e-11   -2.40e-12
Vd:     -3.00e+01   -2.51e+01   -2.49e+01   -2.24e+01   -2.40e+00
Req:     1.00e+12    1.00e+12    1.00e+12    1.00e+12    1.00e+12
CAP:     0.00e+00    0.00e+00    0.00e+00    0.00e+00    0.00e+00

                        --- Bipolar Transistors ---
Name:     q:a1:2      q:a1:1      q:a3:2      q:a3:1      q:a2:2
Model:     a1:qx       a1:qx       a3:qx       a3:qx       a2:qx
Ib:       8.40e-08    8.35e-08    8.19e-08    8.17e-08    8.40e-08
Ic:       5.25e-06    5.22e-06    5.12e-06    5.11e-06    5.25e-06
Vbe:      5.85e-01    5.85e-01    5.84e-01    5.84e-01    5.85e-01
Vbc:     -4.96e+00   -4.96e+00   -9.90e+00   -9.90e+00   -4.96e+00
Vce:      5.54e+00    5.54e+00    1.05e+01    1.05e+01    5.54e+00
BetaDC:   6.25e+01    6.25e+01    6.25e+01    6.25e+01    6.25e+01
Gm:       2.03e-04    2.02e-04    1.98e-04    1.97e-04    2.03e-04
Rpi:      3.08e+05    3.10e+05    3.16e+05    3.17e+05    3.08e+05
Rx:       0.00e+00    0.00e+00    0.00e+00    0.00e+00    0.00e+00
Ro:       5.79e+96    5.89e+96    0.00e+00    0.00e+00    5.79e+96
Cbe:      0.00e+00    0.00e+00    0.00e+00    0.00e+00    0.00e+00
Cbc:      0.00e+00    0.00e+00    0.00e+00    0.00e+00    0.00e+00
Cjs:      0.00e+00    0.00e+00    0.00e+00    0.00e+00    0.00e+00
BetaAC:   6.25e+01    6.25e+01    6.25e+01    6.25e+01    6.25e+01
Cbx:      0.00e+00    0.00e+00    0.00e+00    0.00e+00    0.00e+00
Ft:       0.00e+00    0.00e+00    0.00e+00    0.00e+00    0.00e+00

Name:     q:a2:1
Model:     a2:qx
Ib:       8.35e-08
Ic:       5.22e-06
Vbe:      5.85e-01
Vbc:     -4.96e+00
Vce:      5.54e+00
BetaDC:   6.25e+01
Gm:       2.02e-04
Rpi:      3.10e+05
Rx:       0.00e+00
Ro:       5.89e+96
Cbe:      0.00e+00
Cbc:      0.00e+00
Cjs:      0.00e+00
BetaAC:   6.25e+01
Cbx:      0.00e+00
Ft:       0.00e+00



Date: Sun Mar 07 01:16:17 2021
Total elapsed time: 3.406 seconds.

tnom = 27
temp = 27
method = trap
totiter = 1672
traniter = 0
tranpoints = 0
accept = 0
rejected = 0
matrix size = 84
fillins = 511
solver = Normal

