Circuit: * C:\Users\eduar\Desktop\jr\Instrumentação e Metrologia\Trabalho 2\Simulação LTSpice\questãoC.asc

Ignoring empty pin current: Ix(u2:1)
Ignoring empty pin current: Ix(u2:2)
Early termination of direct N-R iteration.
Direct Newton iteration failed to find .op point.  (Use ".option noopiter" to skip.)
Starting Gmin stepping
Increasing initial diagonal Gmin to 100
Gmin = 100
vernier = 0.5
vernier = 0.25
Gmin = 34.2672
vernier = 0.125
vernier = 0.0625
vernier = 0.03125
vernier = 0.015625
Gmin = 35.4324
vernier = 0.0078125
vernier = 0.00390625
vernier = 0.00195313
vernier = 0.000976563
Gmin = 35.3547
vernier = 0.000488281
Gmin = 0
Gmin stepping failed

Starting source stepping with srcstepmethod=0
Source Step = 3.0303%
Source Step = 5.11364%
Source Step = 7.00758%
Source Step = 8.90152%
Source Step = 10.7955%
Source Step = 12.6894%
vernier = 0.09375
Source Step = 15.1515%
Source Step = 17.9924%
Source Step = 20.8333%
Source Step = 23.6742%
Source Step = 26.5152%
vernier = 0.140625
Source Step = 30.0663%
Source Step = 34.3277%
Source Step = 38.589%
Source Step = 42.8504%
Source Step = 47.1117%
vernier = 0.210938
Source Step = 52.2254%
Source Step = 58.6174%
Source Step = 65.0095%
Source Step = 71.4015%
Source Step = 77.7936%
vernier = 0.316406
Source Step = 85.1444%
Source Step = 94.7325%
Source stepping succeeded in finding the operating point.

Semiconductor Device Operating Points:
                        --- Diodes ---
Name:    d:u1:i2     d:u1:i1     d:u1:2      d:u1:1     d:u1:3:q2
Model:    u1:dx       u1:dx       u1:dx       u1:dx      u1:3:dx
Id:     -1.50e-11   -1.50e-11    2.71e-18   -2.57e-18   -6.72e-13
Vd:     -1.50e+01   -1.50e+01    2.71e-06   -2.57e-06   -6.71e-01
Req:     1.00e+12    1.00e+12    1.00e+12    1.00e+12    1.00e+12
CAP:     0.00e+00    0.00e+00    0.00e+00    0.00e+00    0.00e+00

Name:   d:u1:3:q1   d:u1:3:p    d:u1:3:ln   d:u1:3:lp   d:u1:3:e
Model:   u1:3:dx     u1:3:dx     u1:3:dx     u1:3:dx     u1:3:dx
Id:      1.49e-04   -3.00e-11   -1.42e-11   -4.85e-12   -2.08e-11
Vd:      6.71e-01   -3.00e+01   -1.41e+01   -4.85e+00   -2.08e+01
Req:     1.73e+02    1.00e+12    1.00e+12    1.00e+12    1.00e+12
CAP:     0.00e+00    0.00e+00    0.00e+00    0.00e+00    0.00e+00

Name:   d:u1:3:c    d:u1:2:q2   d:u1:2:q1   d:u1:2:p    d:u1:2:ln
Model:   u1:3:dx     u1:2:dx     u1:2:dx     u1:2:dx     u1:2:dx
Id:     -6.29e-12   -6.73e-13    1.55e-04   -3.00e-11   -1.42e-11
Vd:     -6.29e+00   -6.72e-01    6.72e-01   -3.00e+01   -1.42e+01
Req:     1.00e+12    1.00e+12    1.67e+02    1.00e+12    1.00e+12
CAP:     0.00e+00    0.00e+00    0.00e+00    0.00e+00    0.00e+00

Name:   d:u1:2:lp   d:u1:2:e    d:u1:2:c    d:u1:1:q2   d:u1:1:q1
Model:   u1:2:dx     u1:2:dx     u1:2:dx     u1:1:dx     u1:1:dx
Id:     -1.38e-11   -1.66e-11   -1.10e-11    3.13e-04   -6.91e-13
Vd:     -1.38e+01   -1.66e+01   -1.10e+01    6.90e-01   -6.90e-01
Req:     1.00e+12    1.00e+12    1.00e+12    8.26e+01    1.00e+12
CAP:     0.00e+00    0.00e+00    0.00e+00    0.00e+00    0.00e+00

Name:   d:u1:1:p    d:u1:1:ln   d:u1:1:lp   d:u1:1:e    d:u1:1:c
Model:   u1:1:dx     u1:1:dx     u1:1:dx     u1:1:dx     u1:1:dx
Id:     -3.00e-11   -1.37e-11   -1.43e-11   -9.36e-12   -1.82e-11
Vd:     -3.00e+01   -1.37e+01   -1.43e+01   -9.36e+00   -1.82e+01
Req:     1.00e+12    1.00e+12    1.00e+12    1.00e+12    1.00e+12
CAP:     0.00e+00    0.00e+00    0.00e+00    0.00e+00    0.00e+00

                        --- Bipolar Transistors ---
Name:    q:u1:set2   q:u1:set1    q:u1:2      q:u1:1     q:u1:3:2
Model:     u1:qy       u1:qy       u1:qx       u1:qx      u1:3:qx
Ib:       4.10e-11    4.10e-11    4.00e-08    4.00e-08    1.00e-07
Ic:      -2.80e-11   -2.80e-11    2.00e-05    2.00e-05    3.19e-05
Vbe:      1.30e+01    1.30e+01    6.19e-01    6.19e-01    6.31e-01
Vbc:      2.80e+01    2.80e+01   -1.33e+01   -1.33e+01   -1.35e+01
Vce:     -1.50e+01   -1.50e+01    1.39e+01    1.39e+01    1.41e+01
BetaDC:  -6.82e-01   -6.83e-01    5.00e+02    5.00e+02    3.19e+02
Gm:       0.00e+00    0.00e+00    7.73e-04    7.73e-04    1.23e-03
Rpi:      1.00e+12    1.00e+12    6.47e+05    6.47e+05    2.58e+05
Rx:       0.00e+00    0.00e+00    0.00e+00    0.00e+00    0.00e+00
Ro:       0.00e+00    0.00e+00    0.00e+00    0.00e+00    0.00e+00
Cbe:      0.00e+00    0.00e+00    0.00e+00    0.00e+00    0.00e+00
Cbc:      0.00e+00    0.00e+00    0.00e+00    0.00e+00    0.00e+00
Cjs:      0.00e+00    0.00e+00    0.00e+00    0.00e+00    0.00e+00
BetaAC:   0.00e+00    0.00e+00    5.00e+02    5.00e+02    3.19e+02
Cbx:      0.00e+00    0.00e+00    0.00e+00    0.00e+00    0.00e+00
Ft:       0.00e+00    0.00e+00    0.00e+00    0.00e+00    0.00e+00

Name:    q:u1:3:1
Model:    u1:3:qx
Ib:       1.00e-07
Ic:       3.19e-05
Vbe:      6.31e-01
Vbc:     -1.35e+01
Vce:      1.41e+01
BetaDC:   3.19e+02
Gm:       1.23e-03
Rpi:      2.58e+05
Rx:       0.00e+00
Ro:       0.00e+00
Cbe:      0.00e+00
Cbc:      0.00e+00
Cjs:      0.00e+00
BetaAC:   3.19e+02
Cbx:      0.00e+00
Ft:       0.00e+00

                        --- JFET Transistors ---
Name:   j:u1:2:2    j:u1:2:1    j:u1:1:2    j:u1:1:1
Model:   u1:2:jx     u1:2:jx     u1:1:jx     u1:1:jx
Id:     -2.35e-05   -2.35e-05   -2.35e-05   -2.35e-05
Vgs:     9.73e-01    9.73e-01    9.73e-01    9.73e-01
Vds:    -2.73e+01   -2.73e+01   -2.73e+01   -2.73e+01
Gm:      1.72e-03    1.72e-03    1.72e-03    1.72e-03
Gds:     0.00e+00    0.00e+00    0.00e+00    0.00e+00
Cgs:     0.00e+00    0.00e+00    0.00e+00    0.00e+00
Cgd:     0.00e+00    0.00e+00    0.00e+00    0.00e+00



Date: Sun Apr 11 18:17:09 2021
Total elapsed time: 53.968 seconds.

tnom = 27
temp = 27
method = trap
totiter = 2609
traniter = 0
tranpoints = 0
accept = 0
rejected = 0
matrix size = 120
fillins = 891
solver = Normal
Thread vector: 16.3/8.6[3] 0.0/0.0[0] 9.4/5.6[3] 0.8/2.0[1]  2592/500
Matrix Compiler1: 113.50 KB object code size
Matrix Compiler2: 25.66 KB object code size  3.9/3.8/[1.2]

